"Freq [GHz]","Phi [deg]","Theta [deg]","dB(GainTheta) []","dB(GainPhi) []"
1.57542,90,-180,-6.5974466897519,-42.64360624965
1.57542,90,-179,-6.66173559018438,-42.9627540893185
1.57542,90,-178,-6.71882803659766,-43.3319061693176
1.57542,90,-177,-6.76888151632256,-43.7536669043652
1.57542,90,-176,-6.81206767984705,-44.2310150102999
1.57542,90,-175,-6.84857296976131,-44.7672842654221
1.57542,90,-174,-6.87859956596281,-45.3660799491629
1.57542,90,-173,-6.90236656874293,-46.0310671172763
1.57542,90,-172,-6.92011133219398,-46.7655094902364
1.57542,90,-171,-6.93209085736714,-47.5713310960443
1.57542,90,-170,-6.93858315769062,-48.4472829972617
1.57542,90,-169,-6.93988851779186,-49.3854955540225
1.57542,90,-168,-6.93633058012604,-50.3653600129852
1.57542,90,-167,-6.92825721044553,-51.343869079998
1.57542,90,-166,-6.91604111169451,-52.2441631802414
1.57542,90,-165,-6.90008017485495,-52.952414155917
1.57542,90,-164,-6.88079757314717,-53.3441232379219
1.57542,90,-163,-6.85864162154535,-53.3469521850928
1.57542,90,-162,-6.8340854358567,-52.9909160885641
1.57542,90,-161,-6.80762643405564,-52.3860388805875
1.57542,90,-160,-6.77978572698522,-51.6556254660081
1.57542,90,-159,-6.75110744613542,-50.892345517338
1.57542,90,-158,-6.72215805350199,-50.1514396545467
1.57542,90,-157,-6.69352567327218,-49.4605163382379
1.57542,90,-156,-6.66581947815641,-48.8304862073953
1.57542,90,-155,-6.63966915550035,-48.2631315928367
1.57542,90,-154,-6.61572447071015,-47.7555381805559
1.57542,90,-153,-6.59465493870833,-47.3025013092607
1.57542,90,-152,-6.57714960861269,-46.8977872309655
1.57542,90,-151,-6.56391696288124,-46.5347893939352
1.57542,90,-150,-6.55568492984563,-46.2068829088009
1.57542,90,-149,-6.55320100770596,-45.9076411176274
1.57542,90,-148,-6.55723249832584,-45.6309998881494
1.57542,90,-147,-6.56856685002922,-45.3714102932564
1.57542,90,-146,-6.58801210939233,-45.1239928592643
1.57542,90,-145,-6.61639748194009,-44.8846888753022
1.57542,90,-144,-6.6545739997372,-44.6503934834796
1.57542,90,-143,-6.7034152889475,-44.4190509202677
1.57542,90,-142,-6.76381842106892,-44.1896943310191
1.57542,90,-141,-6.8367048158372,-43.9624201420562
1.57542,90,-140,-6.92302113915698,-43.7382977754573
1.57542,90,-139,-7.02374010227003,-43.5192263208818
1.57542,90,-138,-7.13986101358277,-43.3077575990572
1.57542,90,-137,-7.2724098547535,-43.1069081001657
1.57542,90,-136,-7.42243853704098,-42.919980542408
1.57542,90,-135,-7.59102282688414,-42.7504106745648
1.57542,90,-134,-7.77925818840133,-42.6016484419591
1.57542,90,-133,-7.9882524417903,-42.4770765324152
1.57542,90,-132,-8.21911363249869,-42.3799647224223
1.57542,90,-131,-8.47293077784449,-42.3134557201438
1.57542,90,-130,-8.75074410892704,-42.2805771820193
1.57542,90,-129,-9.05349992452102,-42.2842748350464
1.57542,90,-128,-9.38198305045134,-42.3274627048515
1.57542,90,-127,-9.73671695711005,-42.413087963384
1.57542,90,-126,-10.1178176611907,-42.5442096465281
1.57542,90,-125,-10.5247826356583,-42.7240923710433
1.57542,90,-124,-10.9561906249141,-42.9563182462304
1.57542,90,-123,-11.4092843765368,-43.2449225797769
1.57542,90,-122,-11.8794105210504,-43.594561970504
1.57542,90,-121,-12.359308996693,-44.0107273124347
1.57542,90,-120,-12.8382961028947,-44.5000195277944
1.57542,90,-119,-13.3014947316537,-45.0705128574801
1.57542,90,-118,-13.7294483512504,-45.7322389988193
1.57542,90,-117,-14.0986732749118,-46.49783246165
1.57542,90,-116,-14.3837888314366,-47.383371297622
1.57542,90,-115,-14.5615067399672,-48.4093847241663
1.57542,90,-114,-14.6157584549079,-49.6017285083632
1.57542,90,-113,-14.5420313966025,-50.9910100725278
1.57542,90,-112,-14.3487333628746,-52.6055188418497
1.57542,90,-111,-14.0548179017031,-54.439385303418
1.57542,90,-110,-13.6849845460195,-56.3392225563012
1.57542,90,-109,-13.2647282212538,-57.7434616304305
1.57542,90,-108,-12.8168634854867,-57.7650368317749
1.57542,90,-107,-12.3599025418282,-56.4159644405441
1.57542,90,-106,-11.9078398803125,-54.5851528941288
1.57542,90,-105,-11.4706981487704,-52.8233766864913
1.57542,90,-104,-11.0553396917544,-51.2783402274527
1.57542,90,-103,-10.666266254666,-49.9536548052448
1.57542,90,-102,-10.3062917473497,-48.8198392950256
1.57542,90,-101,-9.97706348623905,-47.8453635096705
1.57542,90,-100,-9.67944720714688,-47.0035030021949
1.57542,90,-99,-9.41380336159959,-46.2728654512754
1.57542,90,-98,-9.18018197887451,-45.6365123787231
1.57542,90,-97,-8.97845877609102,-45.0809612794504
1.57542,90,-96,-8.8084298950119,-44.5953586039349
1.57542,90,-95,-8.66987801508673,-44.1708501243411
1.57542,90,-94,-8.56261897914148,-43.8001144470724
1.57542,90,-93,-8.48653540663267,-43.477019680441
1.57542,90,-92,-8.44160187502326,-43.1963703882278
1.57542,90,-91,-8.42790493258743,-42.9537203157548
1.57542,90,-90,-8.44566030791138,-42.74523319894
1.57542,90,-89,-8.49522908272477,-42.567578990015
1.57542,90,-88,-8.57713420861427,-42.4178563886026
1.57542,90,-87,-8.69207851271577,-42.293535045792
1.57542,90,-86,-8.84096520766369,-42.1924125320265
1.57542,90,-85,-9.02492186114312,-42.1125823626421
1.57542,90,-84,-9.24532875542402,-42.0524102246559
1.57542,90,-83,-9.50385253177539,-42.010516161497
1.57542,90,-82,-9.80248589390883,-41.9857609298292
1.57542,90,-81,-10.1435938001658,-41.9772351001222
1.57542,90,-80,-10.5299657370847,-41.9842497675396
1.57542,90,-79,-10.9648718037115,-42.0063279956617
1.57542,90,-78,-11.4521163744791,-42.0431963458741
1.57542,90,-77,-11.9960748699467,-42.0947760556301
1.57542,90,-76,-12.6016821742368,-42.1611736195735
1.57542,90,-75,-13.2743062329104,-42.2426706959243
1.57542,90,-74,-14.0193681769834,-42.3397134025322
1.57542,90,-73,-14.8414220491517,-42.4529011789257
1.57542,90,-72,-15.7421090585098,-42.5829754704078
1.57542,90,-71,-16.715840329721,-42.7308085377711
1.57542,90,-70,-17.7411998281346,-42.8973927138418
1.57542,90,-69,-18.7656118517929,-43.0838304200248
1.57542,90,-68,-19.6845767998415,-43.2913252278416
1.57542,90,-67,-20.3339531282196,-43.5211742081534
1.57542,90,-66,-20.5400305253249,-43.7747617601659
1.57542,90,-65,-20.2349664076217,-44.0535550582398
1.57542,90,-64,-19.5159612826035,-44.3591012005316
1.57542,90,-63,-18.5625028557614,-44.693026091225
1.57542,90,-62,-17.5281475328205,-45.057035037332
1.57542,90,-61,-16.5053849469678,-45.4529149890912
1.57542,90,-60,-15.5387968973459,-45.8825382943726
1.57542,90,-59,-14.6453962513854,-46.3478677628307
1.57542,90,-58,-13.8285008218944,-46.8509627296606
1.57542,90,-57,-13.085287609398,-47.3939856473471
1.57542,90,-56,-12.4105337138202,-47.9792084768926
1.57542,90,-55,-11.7983709743452,-48.6090177312965
1.57542,90,-54,-11.2430642548088,-49.2859163304225
1.57542,90,-53,-10.739323123783,-50.0125192616519
1.57542,90,-52,-10.2823958855337,-50.7915380586635
1.57542,90,-51,-9.86806605960979,-51.6257456923218
1.57542,90,-50,-9.49260877085855,-52.5179074951536
1.57542,90,-49,-9.15273413640968,-53.4706531875732
1.57542,90,-48,-8.84552999149593,-54.4862462856672
1.57542,90,-47,-8.56840915497301,-55.5661737090556
1.57542,90,-46,-8.31906301674463,-56.7104195900359
1.57542,90,-45,-8.09542164079864,-57.9161879308697
1.57542,90,-44,-7.89561988780477,-59.17568695538
1.57542,90,-43,-7.71796880801947,-60.4724144199591
1.57542,90,-42,-7.56093150828084,-61.7753947651402
1.57542,90,-41,-7.42310274169354,-63.0317191086446
1.57542,90,-40,-7.30319154904912,-64.161006835886
1.57542,90,-39,-7.20000637041515,-65.0616344585782
1.57542,90,-38,-7.11244213178807,-65.6404572393265
1.57542,90,-37,-7.03946889072235,-65.8583174286615
1.57542,90,-36,-6.98012169542131,-65.752785428611
1.57542,90,-35,-6.93349137446532,-65.4134297598124
1.57542,90,-34,-6.89871603030679,-64.9372913398984
1.57542,90,-33,-6.87497306012581,-64.4015537223881
1.57542,90,-32,-6.86147157374968,-63.8587881711533
1.57542,90,-31,-6.85744512103144,-63.3427124176238
1.57542,90,-30,-6.8621446810712,-62.8752084580769
1.57542,90,-29,-6.87483190344543,-62.4714655375047
1.57542,90,-28,-6.89477262746182,-62.1431282234159
1.57542,90,-27,-6.92123073943334,-61.9000735749928
1.57542,90,-26,-6.95346245987027,-61.7513639357159
1.57542,90,-25,-6.99071118183678,-61.705675876494
1.57542,90,-24,-7.03220300768334,-61.7712554220527
1.57542,90,-23,-7.07714315272491,-61.9551631665561
1.57542,90,-22,-7.12471339953539,-62.2611214513987
1.57542,90,-21,-7.17407079329014,-62.6844440744092
1.57542,90,-20,-7.22434776457943,-63.201145574597
1.57542,90,-19,-7.27465384872007,-63.747306601225
1.57542,90,-18,-7.32407913731686,-64.1902941755845
1.57542,90,-17,-7.37169954671694,-64.3217883557781
1.57542,90,-16,-7.41658391820777,-63.942019763245
1.57542,90,-15,-7.45780287718758,-63.0198734706658
1.57542,90,-14,-7.49443927622956,-61.7229358985305
1.57542,90,-13,-7.52559993579625,-60.2695502395759
1.57542,90,-12,-7.55042828491454,-58.813507861656
1.57542,90,-11,-7.56811740327619,-57.433554301356
1.57542,90,-10,-7.57792288814955,-56.1612551994463
1.57542,90,-9,-7.57917492605191,-55.0046795686574
1.57542,90,-8,-7.57128894997513,-53.9616516624682
1.57542,90,-7,-7.55377431351998,-53.0261521902784
1.57542,90,-6,-7.52624051325749,-52.1912001471125
1.57542,90,-5,-7.48840063323356,-51.4500758436776
1.57542,90,-4,-7.44007185797933,-50.7967912271925
1.57542,90,-3,-7.38117308550837,-50.2262290619368
1.57542,90,-2,-7.31171985051703,-49.7341442222327
1.57542,90,-1,-7.23181692236756,-49.3171151195105
1.57542,90,0,-7.14164905819307,-48.9724850331832
1.57542,90,1,-7.0414704600699,-48.6983111125445
1.57542,90,2,-6.93159350456796,-48.4933290212381
1.57542,90,3,-6.81237728708377,-48.3569371956431
1.57542,90,4,-6.68421646085217,-48.2892035673512
1.57542,90,5,-6.54753076286728,-48.290898079517
1.57542,90,6,-6.40275551833351,-48.3635559453924
1.57542,90,7,-6.25033331296051,-48.5095793679404
1.57542,90,8,-6.09070692748512,-48.73238975731
1.57542,90,9,-5.92431354754707,-49.0366492011617
1.57542,90,10,-5.75158019791347,-49.4285806345986
1.57542,90,11,-5.57292030398799,-49.9164336747531
1.57542,90,12,-5.38873125455942,-50.5111726877772
1.57542,90,13,-5.19939282555976,-51.2275152510671
1.57542,90,14,-5.00526632224711,-52.0855417458578
1.57542,90,15,-4.80669430356307,-53.1132664824287
1.57542,90,16,-4.60400076447628,-54.3508703476599
1.57542,90,17,-4.39749166736992,-55.8578056092379
1.57542,90,18,-4.18745572993687,-57.7243477701446
1.57542,90,19,-3.97416539313457,-60.0849909956676
1.57542,90,20,-3.75787790754659,-63.0810222461531
1.57542,90,21,-3.53883648945363,-66.2902715452205
1.57542,90,22,-3.31727150882376,-66.7101433808285
1.57542,90,23,-3.09340168032441,-63.7449697358504
1.57542,90,24,-2.86743523553102,-60.7099938676752
1.57542,90,25,-2.63957106004128,-58.311006175496
1.57542,90,26,-2.409999783511,-56.4266946446109
1.57542,90,27,-2.17890481400933,-54.9127092630734
1.57542,90,28,-1.94646331080865,-53.6693440459402
1.57542,90,29,-1.71284709198537,-52.6296785124874
1.57542,90,30,-1.47822347515834,-51.7471333724071
1.57542,90,31,-1.24275605141756,-50.9876511029344
1.57542,90,32,-1.00660539403311,-50.325041330782
1.57542,90,33,-0.76992970487596,-49.7381974760267
1.57542,90,34,-0.532885402593702,-49.2094319713773
1.57542,90,35,-0.295627657417513,-48.7235168775373
1.57542,90,36,-0.0583108779807913,-48.2671967251989
1.57542,90,37,0.178910844334639,-47.8290265115645
1.57542,90,38,0.415883328262808,-47.3994212101745
1.57542,90,39,0.652451928104823,-46.9708107030061
1.57542,90,40,0.888461188133716,-46.5377963779956
1.57542,90,41,1.12375452359885,-46.0972185296638
1.57542,90,42,1.35817392745924,-45.6480745596475
1.57542,90,43,1.59155970355478,-45.1912727486619
1.57542,90,44,1.82375022848498,-44.7292516972506
1.57542,90,45,2.05458174588516,-44.2655264696171
1.57542,90,46,2.2838881979582,-43.804230931923
1.57542,90,47,2.51150109993887,-43.349713852727
1.57542,90,48,2.73724946356421,-42.9062232216012
1.57542,90,49,2.96095977555345,-42.4776892137181
1.57542,90,50,3.18245603655375,-42.0675981177384
1.57542,90,51,3.40155986500504,-41.6789395774281
1.57542,90,52,3.61809066897311,-41.3142065721051
1.57542,90,53,3.83186588727419,-40.9754292001773
1.57542,90,54,4.04270129926881,-40.6642271232752
1.57542,90,55,4.25041140065053,-40.3818697732436
1.57542,90,56,4.45480984051504,-40.1293371894177
1.57542,90,57,4.65570991308069,-39.9073772832928
1.57542,90,58,4.85292509574497,-39.7165574037411
1.57542,90,59,5.0462696237874,-39.5573094342504
1.57542,90,60,5.23555909102941,-39.42996847219
1.57542,90,61,5.42061106517328,-39.3348055832197
1.57542,90,62,5.60124570637703,-39.2720553220609
1.57542,90,63,5.77728637786812,-39.2419387581305
1.57542,90,64,5.94856023802294,-39.2446827044595
1.57542,90,65,6.11489880429164,-39.2805357607549
1.57542,90,66,6.27613848056623,-39.3497816694315
1.57542,90,67,6.43212104100553,-39.4527503581178
1.57542,90,68,6.58269406487012,-39.5898269063635
1.57542,90,69,6.72771131851549,-39.7614585246315
1.57542,90,70,6.86703308227542,-39.9681594613575
1.57542,90,71,7.00052642148385,-40.2105135446893
1.57542,90,72,7.12806540228547,-40.4891737988302
1.57542,90,73,7.24953125413429,-40.80485822192
1.57542,90,74,7.36481248195144,-41.158340333553
1.57542,90,75,7.47380493179175,-41.5504324420931
1.57542,90,76,7.57641181454674,-41.9819586752495
1.57542,90,77,7.6725436926921,-42.453713575633
1.57542,90,78,7.76211843537849,-42.9664003906415
1.57542,90,79,7.84506114727967,-43.5205410038424
1.57542,90,80,7.92130407656814,-44.1163467668737
1.57542,90,81,7.99078650720753,-44.7535365337762
1.57542,90,82,8.05345464045077,-45.4310857516267
1.57542,90,83,8.10926147003884,-46.1468904148449
1.57542,90,84,8.15816665512299,-46.8973359874935
1.57542,90,85,8.20013639440729,-47.6767812112328
1.57542,90,86,8.23514330444317,-48.4770109887239
1.57542,90,87,8.26316630442032,-49.2867930856557
1.57542,90,88,8.28419050920365,-50.0917909171801
1.57542,90,89,8.29820713177464,-50.8752018187584
1.57542,90,90,8.30521339565914,-51.619499024029
1.57542,90,91,8.30521245737013,-52.3093917050061
1.57542,90,92,8.29821333837089,-52.9355059716929
1.57542,90,93,8.2842308655781,-53.497590922928
1.57542,90,94,8.26328561897956,-54.0058707879413
1.57542,90,95,8.23540388454422,-54.4798872983801
1.57542,90,96,8.20061761025585,-54.9453631765182
1.57542,90,97,8.15896436281126,-55.4302978580461
1.57542,90,98,8.11048728229366,-55.9611720047926
1.57542,90,99,8.05523503196657,-56.5590535649793
1.57542,90,100,7.99326174023766,-57.2339649596038
1.57542,90,101,7.92462693182123,-57.9741488874038
1.57542,90,102,7.84939544518707,-58.7255549551838
1.57542,90,103,7.76763733352712,-59.361820711339
1.57542,90,104,7.67942774670536,-59.6737177425907
1.57542,90,105,7.58484679198265,-59.4523622316818
1.57542,90,106,7.48397937173219,-58.6597961870949
1.57542,90,107,7.37691499688048,-57.4686240232213
1.57542,90,108,7.26374757542573,-56.1070192067238
1.57542,90,109,7.14457517609358,-54.7350426547429
1.57542,90,110,7.01949976798422,-53.4336586963747
1.57542,90,111,6.88862693793339,-52.2346120078823
1.57542,90,112,6.75206558823953,-51.1454109134399
1.57542,90,113,6.60992761838062,-50.1631005858084
1.57542,90,114,6.46232759533647,-49.2808223205784
1.57542,90,115,6.30938241811787,-48.4907219133164
1.57542,90,116,6.15121098305446,-47.7851582454923
1.57542,90,117,5.98793385727744,-47.1571485284647
1.57542,90,118,5.81967296861541,-46.6004805527954
1.57542,90,119,5.64655132077168,-46.1096868462643
1.57542,90,120,5.46869274313199,-45.6799682005615
1.57542,90,121,5.28622168483655,-45.3071050969785
1.57542,90,122,5.09926306280916,-44.9873732623051
1.57542,90,123,4.90794217324948,-44.7174694754374
1.57542,90,124,4.71238467564603,-44.4944492478445
1.57542,90,125,4.51271665764846,-44.3156760882647
1.57542,90,126,4.30906478814728,-44.1787813198306
1.57542,90,127,4.10155656465481,-44.0816331773363
1.57542,90,128,3.89032065957491,-44.0223138524128
1.57542,90,129,3.67548736821243,-43.9991031174592
1.57542,90,130,3.45718915943076,-44.0104670641657
1.57542,90,131,3.23556132774563,-44.0550502923508
1.57542,90,132,3.01074274337692,-44.1316695450129
1.57542,90,133,2.78287669439792,-44.2393062705499
1.57542,90,134,2.55211181265401,-44.3770948568825
1.57542,90,135,2.31860307259773,-44.5443022578848
1.57542,90,136,2.08251284963183,-44.7402933229147
1.57542,90,137,1.84401202198932,-44.9644742114382
1.57542,90,138,1.60328109763375,-45.2162036628368
1.57542,90,139,1.36051134515941,-45.4946584456669
1.57542,90,140,1.11590590523718,-45.7986350217984
1.57542,90,141,0.869680856824228,-46.1262647742959
1.57542,90,142,0.622066210182752,-46.4746166348271
1.57542,90,143,0.373306796795238,-46.8391625900019
1.57542,90,144,0.123663024605319,-47.2130968301883
1.57542,90,145,-0.126588534242812,-47.5865435881487
1.57542,90,146,-0.377154756716817,-47.9457838942558
1.57542,90,147,-0.627725816849348,-48.2727943295606
1.57542,90,148,-0.877975301096548,-48.5455953815911
1.57542,90,149,-1.12756062198937,-48.7400179439662
1.57542,90,150,-1.37612375783562,-48.8332404085571
1.57542,90,151,-1.6232923416598,-48.8085983774641
1.57542,90,152,-1.86868111639411,-48.6600093584004
1.57542,90,153,-2.11189376544763,-48.3938901203619
1.57542,90,154,-2.35252511815313,-48.0275089419472
1.57542,90,155,-2.59016371829772,-47.5846770170372
1.57542,90,156,-2.82439473120231,-47.0908735267314
1.57542,90,157,-3.05480315099413,-46.5695458759193
1.57542,90,158,-3.28097725536049,-46.0401798876151
1.57542,90,159,-3.50251224089022,-45.5178361373429
1.57542,90,160,-3.71901395895778,-45.0135473850513
1.57542,90,161,-3.93010266094652,-44.535064032173
1.57542,90,162,-4.13541665343992,-44.087638479756
1.57542,90,163,-4.33461575978831,-43.674707716223
1.57542,90,164,-4.52738448499343,-43.2984339236868
1.57542,90,165,-4.71343478671018,-42.9601104425539
1.57542,90,166,-4.89250836657325,-42.6604572599377
1.57542,90,167,-5.06437841284262,-42.3998323204068
1.57542,90,168,-5.22885074691058,-42.1783814110449
1.57542,90,169,-5.38576435148567,-41.9961444512902
1.57542,90,170,-5.53499128585408,-41.8531314641747
1.57542,90,171,-5.67643602184078,-41.7493778460075
1.57542,90,172,-5.81003426113975,-41.6849858071328
1.57542,90,173,-5.93575131876727,-41.6601568771286
1.57542,90,174,-6.05358017690093,-41.6752189733247
1.57542,90,175,-6.16353932699685,-41.730650561676
1.57542,90,176,-6.26567052494323,-41.8271037644312
1.57542,90,177,-6.36003658370292,-41.9654277863879
1.57542,90,178,-6.44671932051411,-42.1466936520154
1.57542,90,179,-6.52581776182763,-42.3722208793809
1.57542,90,180,-6.5974466897519,-42.64360624965
