"Freq [GHz]","Theta [deg]","Phi [deg]","dB(GainTheta) []","dB(GainPhi) []"
1.57542,90,-180,-1.29798779590346,-31.5207919081768
1.57542,90,-179,-1.42871084282754,-30.9980435248174
1.57542,90,-178,-1.5615965920746,-30.5198420862143
1.57542,90,-177,-1.69646172947058,-30.0829851430874
1.57542,90,-176,-1.83310297090855,-29.6847971682091
1.57542,90,-175,-1.97129687242138,-29.3230331134276
1.57542,90,-174,-2.11080010605396,-28.9958035877901
1.57542,90,-173,-2.25135028539585,-28.7015163973863
1.57542,90,-172,-2.39266741604499,-28.4388305418003
1.57542,90,-171,-2.53445603316533,-28.2066197488383
1.57542,90,-170,-2.67640807029672,-28.0039433442135
1.57542,90,-169,-2.81820648052143,-27.8300227682578
1.57542,90,-168,-2.95952960317244,-27.684222419485
1.57542,90,-167,-3.10005623710303,-27.5660337611689
1.57542,90,-166,-3.23947134626246,-27.4750617962735
1.57542,90,-165,-3.37747228663256,-27.4110131130564
1.57542,90,-164,-3.51377540769599,-27.3736847359349
1.57542,90,-163,-3.64812284917267,-27.3629529846495
1.57542,90,-162,-3.78028932764002,-27.3787614438953
1.57542,90,-161,-3.91008869064826,-27.4211069631907
1.57542,90,-160,-4.03738001045557,-27.4900223229943
1.57542,90,-159,-4.16207299718945,-27.5855537895504
1.57542,90,-158,-4.28413253267812,-27.7077311999758
1.57542,90,-157,-4.40358216071231,-27.8565274248614
1.57542,90,-156,-4.5205064151061,-28.0318029996921
1.57542,90,-155,-4.63505192045473,-28.2332303632767
1.57542,90,-154,-4.7474272579011,-28.4601905053155
1.57542,90,-153,-4.85790164505629,-28.7116330470619
1.57542,90,-152,-4.96680253110316,-28.9858892758393
1.57542,90,-151,-5.07451225125905,-29.2804273866843
1.57542,90,-150,-5.18146391639155,-29.5915420828975
1.57542,90,-149,-5.2881367321155,-29.9139802036303
1.57542,90,-148,-5.39505094689469,-30.2405255360674
1.57542,90,-147,-5.5027626214636,-30.5616059576978
1.57542,90,-146,-5.61185839414256,-30.8650483222444
1.57542,90,-145,-5.72295039080763,-31.1361821434214
1.57542,90,-144,-5.83667139709437,-31.35854456151
1.57542,90,-143,-5.95367037646065,-31.5153903894606
1.57542,90,-142,-6.07460838324316,-31.5919777241084
1.57542,90,-141,-6.20015488650683,-31.5781869176207
1.57542,90,-140,-6.33098448936492,-31.4706431404062
1.57542,90,-139,-6.4677739999502,-31.2734923780008
1.57542,90,-138,-6.61119978414421,-30.9974871235054
1.57542,90,-137,-6.76193530578171,-30.657784430212
1.57542,90,-136,-6.92064873613772,-30.2713256552951
1.57542,90,-135,-7.08800048947645,-29.8546044921189
1.57542,90,-134,-7.26464051335471,-29.4222273465519
1.57542,90,-133,-7.45120512896326,-28.9862677919877
1.57542,90,-132,-7.64831317547879,-28.5562010401419
1.57542,90,-131,-7.85656116028976,-28.1391677236874
1.57542,90,-130,-8.07651705084039,-27.74037218406
1.57542,90,-129,-8.3087122602706,-27.363495904736
1.57542,90,-128,-8.55363127455788,-27.011067188093
1.57542,90,-127,-8.81169824049589,-26.6847663694782
1.57542,90,-126,-9.08325968000923,-26.3856660914427
1.57542,90,-125,-9.36856231862131,-26.1144149391588
1.57542,90,-124,-9.66772482226639,-25.8713752623282
1.57542,90,-123,-9.98070204635821,-25.6567255822615
1.57542,90,-122,-10.3072402529793,-25.4705364337098
1.57542,90,-121,-10.6468217169781,-25.3128267206642
1.57542,90,-120,-10.9985973395146,-25.1836060596918
1.57542,90,-119,-11.3613065085489,-25.0829072698243
1.57542,90,-118,-11.7331847716159,-25.0108121532858
1.57542,90,-117,-12.1118622966385,-24.9674729602314
1.57542,90,-116,-12.4942600321123,-24.9531313963439
1.57542,90,-115,-12.876496307412,-24.9681366719474
1.57542,90,-114,-13.2538243320546,-25.0129638720629
1.57542,90,-113,-13.6206297509793,-25.0882338263041
1.57542,90,-112,-13.9705245781723,-25.194735664429
1.57542,90,-111,-14.2965748276198,-25.3334533578145
1.57542,90,-110,-14.5916877151773,-25.5055977817174
1.57542,90,-109,-14.8491550885146,-25.712646216102
1.57542,90,-108,-15.0633033781446,-25.9563917834165
1.57542,90,-107,-15.2301486363672,-26.2390061805348
1.57542,90,-106,-15.3479211059251,-26.5631203278985
1.57542,90,-105,-15.4173312914649,-26.9319294377476
1.57542,90,-104,-15.441506644305,-27.3493318286668
1.57542,90,-103,-15.4256156317627,-27.8201151339952
1.57542,90,-102,-15.3762761835299,-28.350210286243
1.57542,90,-101,-15.3008850484426,-28.9470443796099
1.57542,90,-100,-15.2069945619059,-29.6200409513228
1.57542,90,-99,-15.1018195840933,-30.3813451941223
1.57542,90,-98,-14.9919053979475,-31.2469005748344
1.57542,90,-97,-14.8829465755083,-32.2380865128086
1.57542,90,-96,-14.7797244748853,-33.3842639432517
1.57542,90,-95,-14.6861248582183,-34.7267692535843
1.57542,90,-94,-14.605200978201,-36.3249630227144
1.57542,90,-93,-14.5392555343453,-38.2634091111621
1.57542,90,-92,-14.489923325241,-40.6460077402497
1.57542,90,-91,-14.4582433952707,-43.469488342686
1.57542,90,-90,-14.4447145191287,-45.8323563046758
1.57542,90,-89,-14.4493312077629,-45.265015452734
1.57542,90,-88,-14.4715995395948,-42.5352122165402
1.57542,90,-87,-14.5105335457041,-39.8408628611927
1.57542,90,-86,-14.5646340893044,-37.6239803298439
1.57542,90,-85,-14.6318536025462,-35.8176368874719
1.57542,90,-84,-14.7095520406524,-34.3207613062326
1.57542,90,-83,-14.7944522548521,-33.0576176432264
1.57542,90,-82,-14.8826067536889,-31.9754983277549
1.57542,90,-81,-14.969392228258,-31.0374985076652
1.57542,90,-80,-15.0495523406349,-30.2171810690247
1.57542,90,-79,-15.1173113203432,-29.4951265463381
1.57542,90,-78,-15.1665782168042,-28.8567328036587
1.57542,90,-77,-15.1912513126926,-28.2907902419987
1.57542,90,-76,-15.1856126281816,-27.7885375684634
1.57542,90,-75,-15.1447756203655,-27.3430205369595
1.57542,90,-74,-15.0651223126965,-26.9486460863542
1.57542,90,-73,-14.9446505732532,-26.6008654940903
1.57542,90,-72,-14.7831586978899,-26.2959446527029
1.57542,90,-71,-14.5822255952857,-26.0307944134849
1.57542,90,-70,-14.3449916235969,-25.8028431246187
1.57542,90,-69,-14.0757899798993,-25.6099392976083
1.57542,90,-68,-13.779705039644,-25.4502760818265
1.57542,90,-67,-13.4621354814586,-25.3223316873734
1.57542,90,-66,-13.1284212617379,-25.224821536543
1.57542,90,-65,-12.7835658499019,-25.156659028671
1.57542,90,-64,-12.4320594268755,-25.1169225490148
1.57542,90,-63,-12.0777911034628,-25.1048268510576
1.57542,90,-62,-11.7240297129764,-25.1196972639092
1.57542,90,-61,-11.3734513542113,-25.1609453670129
1.57542,90,-60,-11.0281946599532,-25.2280448611419
1.57542,90,-59,-10.6899292290266,-25.3205063648751
1.57542,90,-58,-10.3599271742553,-25.4378497902345
1.57542,90,-57,-10.0391315185652,-25.5795728084073
1.57542,90,-56,-9.72821798787446,-25.7451137172345
1.57542,90,-55,-9.42764867026813,-25.9338067861754
1.57542,90,-54,-9.13771722029795,-26.1448279207864
1.57542,90,-53,-8.85858598456286,-26.3771283316789
1.57542,90,-52,-8.590315780278,-26.6293539458958
1.57542,90,-51,-8.33288920090564,-26.8997487871002
1.57542,90,-50,-8.08622834166516,-27.1860418311991
1.57542,90,-49,-7.85020779145888,-27.4853194342997
1.57542,90,-48,-7.6246636626756,-27.793889997846
1.57542,90,-47,-7.40939934756191,-28.107154767624
1.57542,90,-46,-7.20418861078924,-28.4195088931625
1.57542,90,-45,-7.00877655799396,-28.7243093351396
1.57542,90,-44,-6.82287896152077,-29.0139578908294
1.57542,90,-43,-6.6461803775975,-29.2801521446388
1.57542,90,-42,-6.47833145298565,-29.5143449913331
1.57542,90,-41,-6.31894579256199,-29.7084152689936
1.57542,90,-40,-6.16759674072797,-29.855486984349
1.57542,90,-39,-6.02381441711347,-29.9507592244856
1.57542,90,-38,-5.88708333839604,-29.9921586367304
1.57542,90,-37,-5.7568409502835,-29.9806393772836
1.57542,90,-36,-5.63247738322887,-29.9200429533003
1.57542,90,-35,-5.51333672800999,-29.8165592031942
1.57542,90,-34,-5.39872009813136,-29.6779387398063
1.57542,90,-33,-5.28789070013257,-29.5126490116302
1.57542,90,-32,-5.18008106577052,-29.3291358659181
1.57542,90,-31,-5.07450250839916,-29.1352816605336
1.57542,90,-30,-4.97035674871401,-28.9380789725206
1.57542,90,-29,-4.86684951476296,-28.7434901211564
1.57542,90,-28,-4.76320576445724,-28.5564417224233
1.57542,90,-27,-4.65868601719345,-28.3809030118174
1.57542,90,-26,-4.55260313044408,-28.2200066247215
1.57542,90,-25,-4.4443387361007,-28.0761832015985
1.57542,90,-24,-4.33335847927989,-27.951292424061
1.57542,90,-23,-4.21922519576806,-27.8467414307795
1.57542,90,-22,-4.10160923350483,-27.7635870427238
1.57542,90,-21,-3.98029526942264,-27.7026214605419
1.57542,90,-20,-3.85518518569523,-27.6644427819482
1.57542,90,-19,-3.72629682883259,-27.6495124027691
1.57542,90,-18,-3.59375875334505,-27.6582015250589
1.57542,90,-17,-3.45780131797202,-27.6908288676516
1.57542,90,-16,-3.31874472782538,-27.7476914200352
1.57542,90,-15,-3.1769847780226,-27.8290897896892
1.57542,90,-14,-3.03297714114966,-27.9353494117582
1.57542,90,-13,-2.88722105077744,-28.0668386376232
1.57542,90,-12,-2.74024317467523,-28.2239845000942
1.57542,90,-11,-2.59258235985835,-28.4072867636327
1.57542,90,-10,-2.44477578636842,-28.6173306990894
1.57542,90,-9,-2.29734690713801,-28.8547988606244
1.57542,90,-8,-2.15079539439752,-29.1204819695689
1.57542,90,-7,-2.00558917167964,-29.415288800463
1.57542,90,-6,-1.86215849269262,-29.7402546808822
1.57542,90,-5,-1.72089193785225,-30.0965478016988
1.57542,90,-4,-1.58213413615068,-30.4854718982655
1.57542,90,-3,-1.44618498181604,-30.908462862096
1.57542,90,-2,-1.31330009790582,-31.3670752454263
1.57542,90,-1,-1.18369229801772,-31.8629520529634
1.57542,90,0,-1.05753380820077,-32.3977670727262
1.57542,90,1,-0.934959029908239,-32.9731223235542
1.57542,90,2,-0.816067648158169,-33.590372521593
1.57542,90,3,-0.700927914424559,-34.2503316960886
1.57542,90,4,-0.589579959355433,-34.9527917059562
1.57542,90,5,-0.482039014996274,-35.6957469183464
1.57542,90,6,-0.378298449066667,-36.4741781884445
1.57542,90,7,-0.278332534631665,-37.2782268463578
1.57542,90,8,-0.182098897112915,-38.0906611647266
1.57542,90,9,-0.0895405970431385,-38.8838795727614
1.57542,90,10,-0.000587821419574009,-39.6175841512009
1.57542,90,11,0.0848408308590928,-40.2397655742834
1.57542,90,12,0.166837472977733,-40.6946406384206
1.57542,90,13,0.245504457521426,-40.9385870164337
1.57542,90,14,0.320954292648229,-40.9573449390992
1.57542,90,15,0.393309925266793,-40.7721221376472
1.57542,90,16,0.462705362801775,-40.4293747106641
1.57542,90,17,0.529286599169118,-39.9827281930623
1.57542,90,18,0.593212805020375,-39.4788596704954
1.57542,90,19,0.654657736940384,-38.9516984726565
1.57542,90,20,0.713811314890116,-38.4226632248766
1.57542,90,21,0.770881311586926,-37.90337277961
1.57542,90,22,0.82609509154974,-37.3986340589699
1.57542,90,23,0.879701331102971,-36.908885638209
1.57542,90,24,0.931971643707207,-36.4319870080652
1.57542,90,25,0.983202027656287,-35.9644813575096
1.57542,90,26,1.03371404568491,-35.5024853054647
1.57542,90,27,1.08385563878564,-35.0423184533824
1.57542,90,28,1.13400147016736,-34.5809391436129
1.57542,90,29,1.18455269066022,-34.1162199668449
1.57542,90,30,1.23593601508072,-33.6470807683037
1.57542,90,31,1.28860200142035,-33.1734950570355
1.57542,90,32,1.34302243266406,-32.6963919003885
1.57542,90,33,1.399686716065,-32.217483105873
1.57542,90,34,1.45909723814845,-31.7390497454702
1.57542,90,35,1.52176364658056,-31.2637206364193
1.57542,90,36,1.58819607268123,-30.794268852151
1.57542,90,37,1.65889736024006,-30.3334430398942
1.57542,90,38,1.73435442570334,-29.8838409250134
1.57542,90,39,1.81502893869719,-29.4478248089852
1.57542,90,40,1.90134757585046,-29.0274739408491
1.57542,90,41,1.99369215944393,-28.6245662644133
1.57542,90,42,2.09239003930155,-28.2405816087722
1.57542,90,43,2.19770510530608,-27.8767191594553
1.57542,90,44,2.30982982357164,-27.5339233858578
1.57542,90,45,2.42887866801887,-27.2129140638569
1.57542,90,46,2.55488326982378,-26.9142173654014
1.57542,90,47,2.68778953196639,-26.6381960768422
1.57542,90,48,2.8274568600239,-26.3850778328243
1.57542,90,49,2.97365955122547,-26.1549808385059
1.57542,90,50,3.12609027112341,-25.9479369446506
1.57542,90,51,3.28436544102357,-25.7639121852361
1.57542,90,52,3.44803226866912,-25.6028250275901
1.57542,90,53,3.61657708666091,-25.4645626543794
1.57542,90,54,3.78943462194365,-25.3489956204043
1.57542,90,55,3.96599780645941,-25.2559912233725
1.57542,90,56,4.14562775187565,-25.1854259094069
1.57542,90,57,4.32766354588341,-25.1371970097373
1.57542,90,58,4.51143157818382,-25.1112340808206
1.57542,90,59,4.69625416459827,-25.1075101002558
1.57542,90,60,4.88145730165315,-25.126052758495
1.57542,90,61,5.06637744626452,-25.1669560842521
1.57542,90,62,5.2503672717757,-25.2303926523753
1.57542,90,63,5.43280039993553,-25.3166266498893
1.57542,90,64,5.61307514709535,-25.4260281227519
1.57542,90,65,5.79061735168956,-25.5590887976876
1.57542,90,66,5.96488236951753,-25.7164399771879
1.57542,90,67,6.13535633457724,-25.8988731511224
1.57542,90,68,6.30155678762254,-26.1073641693254
1.57542,90,69,6.46303277372165,-26.3431020963188
1.57542,90,70,6.61936450532124,-26.6075242521178
1.57542,90,71,6.77016267994452,-26.9023594772037
1.57542,90,72,6.91506753274821,-27.2296824146224
1.57542,90,73,7.05374769458246,-27.5919826857464
1.57542,90,74,7.18589891657861,-27.9922544195269
1.57542,90,75,7.31124271308492,-28.434113954393
1.57542,90,76,7.42952496627049,-28.921957123789
1.57542,90,77,7.54051452809168,-29.4611731332708
1.57542,90,78,7.64400184863284,-30.0584409824935
1.57542,90,79,7.73979765409825,-30.7221490847961
1.57542,90,80,7.82773169289979,-31.4630036372371
1.57542,90,81,7.90765156428292,-32.2949348975413
1.57542,90,82,7.97942164067253,-33.2364896557065
1.57542,90,83,8.04292209230614,-34.3130471734848
1.57542,90,84,8.0980480206602,-35.5604858295895
1.57542,90,85,8.14470870557588,-37.031500220719
1.57542,90,86,8.18282696977223,-38.8068275254756
1.57542,90,87,8.21233866352213,-41.0146715748454
1.57542,90,88,8.23319227159349,-43.8517282404926
1.57542,90,89,8.24534864406795,-47.4431880129978
1.57542,90,90,8.24878085228927,-50.0926958912005
1.57542,90,91,8.24347417091831,-47.8247193933373
1.57542,90,92,8.22942618684039,-44.2033229859121
1.57542,90,93,8.20664703544427,-41.311562517025
1.57542,90,94,8.17515976453367,-39.0704273161664
1.57542,90,95,8.13500082580458,-37.2772633866453
1.57542,90,96,8.0862206933856,-35.7978295760106
1.57542,90,97,8.02888460835199,-34.5477051470204
1.57542,90,98,7.96307344734024,-33.4719824987447
1.57542,90,99,7.88888471235555,-32.5333949543231
1.57542,90,100,7.80643363751973,-31.7056459016073
1.57542,90,101,7.71585440678357,-30.9695513131729
1.57542,90,102,7.61730147444791,-30.3107176977985
1.57542,90,103,7.51095097761868,-29.7180882791349
1.57542,90,104,7.39700222636945,-29.1829998341375
1.57542,90,105,7.27567925330867,-28.6985513005182
1.57542,90,106,7.14723239935334,-28.2591692490418
1.57542,90,107,7.01193990671615,-27.860301433875
1.57542,90,108,6.8701094833583,-27.4981958847961
1.57542,90,109,6.72207979542468,-27.1697384576718
1.57542,90,110,6.5682218354986,-26.8723311411213
1.57542,90,111,6.4089401050142,-26.6037992763302
1.57542,90,112,6.24467353908421,-26.3623196023451
1.57542,90,113,6.07589609172984,-26.1463635043473
1.57542,90,114,5.90311688961345,-25.9546514965555
1.57542,90,115,5.72687985366696,-25.7861161038149
1.57542,90,116,5.54776268150921,-25.6398710952132
1.57542,90,117,5.36637508052278,-25.5151855818187
1.57542,90,118,5.18335614338886,-25.4114618912988
1.57542,90,119,4.99937076636493,-25.3282164222625
1.57542,90,120,4.81510502723903,-25.2650628925353
1.57542,90,121,4.63126046612153,-25.2216975500285
1.57542,90,122,4.44854724900643,-25.1978860277531
1.57542,90,123,4.26767624157019,-25.1934516069001
1.57542,90,124,4.0893500781417,-25.20826471197
1.57542,90,125,3.91425337600541,-25.2422335059219
1.57542,90,126,3.74304231453909,-25.2952954860957
1.57542,90,127,3.57633386701543,-25.3674100071311
1.57542,90,128,3.41469503390375,-25.4585516784256
1.57542,90,129,3.25863247324359,-25.5687046034967
1.57542,90,130,3.10858294936969,-25.6978574491778
1.57542,90,131,2.96490502036186,-25.8459993558704
1.57542,90,132,2.82787235368761,-26.0131167278504
1.57542,90,133,2.6976689982299,-26.1991909765139
1.57542,90,134,2.57438685234666,-26.4041973309104
1.57542,90,135,2.45802545827576,-26.6281048803132
1.57542,90,136,2.34849413227717,-26.8708780740355
1.57542,90,137,2.24561631815584,-27.1324799751131
1.57542,90,138,2.14913594009926,-27.4128776472927
1.57542,90,139,2.05872543859207,-27.7120501490036
1.57542,90,140,1.97399510745433,-28.029999713073
1.57542,90,141,1.89450331438531,-28.366766805862
1.57542,90,142,1.81976718189386,-28.7224498831441
1.57542,90,143,1.74927332716302,-29.0972307919871
1.57542,90,144,1.68248830291879,-29.491406909919
1.57542,90,145,1.61886844012135,-29.9054312710357
1.57542,90,146,1.55786886032679,-30.3399621178169
1.57542,90,147,1.49895149447806,-30.7959235643222
1.57542,90,148,1.44159201040525,-31.2745794068495
1.57542,90,149,1.3852856096249,-31.7776226427682
1.57542,90,150,1.32955170280398,-32.3072840586252
1.57542,90,151,1.27393751152883,-32.8664644590232
1.57542,90,152,1.21802067192423,-33.4588968853097
1.57542,90,153,1.16141093411641,-34.0893476546847
1.57542,90,154,1.10375106191739,-34.7638682171582
1.57542,90,155,1.04471704103521,-35.4901131102577
1.57542,90,156,0.984017703197493,-36.2777404331207
1.57542,90,157,0.92139386930034,-37.1389030229774
1.57542,90,158,0.85661710832279,-38.0887988957943
1.57542,90,159,0.78948820129062,-39.1461118622199
1.57542,90,160,0.719835391778104,-40.3327322353465
1.57542,90,161,0.647512496811454,-41.670760143943
1.57542,90,162,0.572396944876798,-43.1704870933591
1.57542,90,163,0.494387801164262,-44.7907970995961
1.57542,90,164,0.413403834188119,-46.3319216017552
1.57542,90,165,0.329381672406629,-47.2806789126631
1.57542,90,166,0.242274094259428,-47.0434200863617
1.57542,90,167,0.152048489948594,-45.7352234196328
1.57542,90,168,0.0586855281102445,-44.0007429914728
1.57542,90,169,-0.0378219449300735,-42.2681177783982
1.57542,90,170,-0.137469751509572,-40.6828802196604
1.57542,90,171,-0.240242959209607,-39.2680753877406
1.57542,90,172,-0.346116179331277,-38.0098553584304
1.57542,90,173,-0.455053586602633,-36.887034684532
1.57542,90,174,-0.567008667724308,-35.8797048065921
1.57542,90,175,-0.681923715146528,-34.9711716187265
1.57542,90,176,-0.799729091654995,-34.1479298890882
1.57542,90,177,-0.920342300768875,-33.3991557360456
1.57542,90,178,-1.04366690743471,-32.7161631320152
1.57542,90,179,-1.16959136281812,-32.0919417689472
1.57542,90,180,-1.29798779590346,-31.5207919081768
